
T2CB8 000:070 SEGGER J-Link V6.10g Log File (0001ms, 0027ms total)
T2CB8 000:070 DLL Compiled: Oct 19 2016 16:41:37 (0001ms, 0027ms total)
T2CB8 000:070 Logging started @ 2018-07-14 10:44 (0001ms, 0027ms total)
T2CB8 000:071 JLINK_SetWarnOutHandler(...) (0000ms, 0027ms total)
T2CB8 000:071 JLINK_OpenEx(...)
Firmware: J-Link ARM-OB STM32 compiled Aug 22 2012 19:52:04
Hardware: V7.00
S/N: 20090928
Feature(s): RDI,FlashDL,FlashBP,JFlash,GDBFullWEBSRV Webserver running on local port 19080 (0023ms, 0050ms total)
T2CB8 000:071   returns O.K. (0023ms, 0050ms total)
T2CB8 000:094 JLINK_SetErrorOutHandler(...) (0000ms, 0050ms total)
T2CB8 000:094 JLINK_ExecCommand("ProjectFile = "E:\大创\项目资料\测试\USER\JLinkSettings.ini"", ...). C:\Program Files (x86)\SEGGER\JLink_V610g\JLinkDevices.xml evaluated successfully.  returns 0x00 (0214ms, 0264ms total)
T2CB8 000:314 JLINK_ExecCommand("Device = STM32F103C8", ...). Device "STM32F103C8" selected.  returns 0x00 (0012ms, 0276ms total)
T2CB8 000:326 JLINK_ExecCommand("DisableConnectionTimeout", ...).   returns 0x01 (0000ms, 0276ms total)
T2CB8 000:326 JLINK_GetHardwareVersion()  returns 0x11170 (0000ms, 0276ms total)
T2CB8 000:326 JLINK_GetDLLVersion()  returns 61007 (0000ms, 0276ms total)
T2CB8 000:326 JLINK_GetFirmwareString(...) (0000ms, 0276ms total)
T2CB8 000:343 JLINK_GetDLLVersion()  returns 61007 (0000ms, 0276ms total)
T2CB8 000:343 JLINK_GetCompileDateTime() (0000ms, 0276ms total)
T2CB8 000:347 JLINK_GetFirmwareString(...) (0000ms, 0276ms total)
T2CB8 000:350 JLINK_GetHardwareVersion()  returns 0x11170 (0000ms, 0276ms total)
T2CB8 000:363 JLINK_TIF_Select(JLINKARM_TIF_SWD)  returns 0x00 (0000ms, 0276ms total)
T2CB8 000:363 JLINK_SetSpeed(20000) (0000ms, 0276ms total)
T2CB8 000:363 JLINK_GetId() >0x108 TIF>Found SWD-DP with ID 0x1BA01477 >0x0D TIF> >0x28 TIF> >0x0D TIF> >0x28 TIF> >0x0D TIF> >0x28 TIF> >0x0D TIF> >0x28 TIF> >0x0D TIF> >0x21 TIF> >0x0D TIF> >0x28 TIF> >0x0D TIF> >0x28 TIF> >0x0D TIF> >0x28 TIF> >0x0D TIF> >0x21 TIF> >0x0D TIF> >0x21 TIF> >0x0D TIF> >0x28 TIF> >0x0D TIF> >0x21 TIF> >0x0D TIF> >0x21 TIF> >0x0D TIF> >0x28 TIF> >0x0D TIF> >0x21 TIF> >0x0D TIF> >0x21 TIF> >0x0D TIF> >0x28 TIF> >0x0D TIF> >0x21 TIF> >0x0D TIF> >0x21 TIF> >0x0D TIF>
 >0x28 TIF> >0x0D TIF> >0x21 TIF> >0x0D TIF> >0x21 TIF> >0x0D TIF> >0x28 TIF> >0x0D TIF> >0x21 TIF> >0x0D TIF> >0x21 TIF> >0x0D TIF> >0x28 TIF> >0x0D TIF> >0x21 TIF> >0x0D TIF> >0x21 TIF> >0x108 TIF>Found SWD-DP with ID 0x1BA01477 >0x0D TIF> >0x28 TIF> >0x0D TIF> >0x28 TIF> >0x0D TIF> >0x28 TIF> >0x0D TIF> >0x28 TIF> >0x0D TIF> >0x21 TIF> >0x0D TIF> >0x28 TIF> >0x0D TIF> >0x28 TIF> >0x0D TIF> >0x21 TIF> >0x0D TIF> >0x21 TIF> >0x0D TIF> >0x21 TIF>AP-IDR: 0x14770011, Type: AHB-AP >0x0D TIF> >0x28 TIF>
 >0x0D TIF> >0x28 TIF> >0x0D TIF> >0x28 TIF> >0x0D TIF> >0x21 TIF> >0x0D TIF> >0x21 TIF> >0x0D TIF> >0x28 TIF> >0x0D TIF> >0x21 TIF> >0x0D TIF> >0x21 TIF>Found Cortex-M3 r1p1, Little endian. -- CPU_ReadMem(4 bytes @ 0xE000EDF0) -- CPU_ReadMem(4 bytes @ 0xE0002000)FPUnit: 6 code (BP) slots and 2 literal slots -- CPU_ReadMem(4 bytes @ 0xE000EDFC) -- CPU_ReadMem(4 bytes @ 0xE0001000) -- CPU_WriteMem(4 bytes @ 0xE0001000) -- CPU_ReadMem(4 bytes @ 0xE000ED88) -- CPU_WriteMem(4 bytes @ 0xE000ED88)
 -- CPU_ReadMem(4 bytes @ 0xE000ED88) -- CPU_WriteMem(4 bytes @ 0xE000ED88)CoreSight components:ROMTbl 0 @ E00FF000 -- CPU_ReadMem(16 bytes @ 0xE00FF000) -- CPU_ReadMem(16 bytes @ 0xE000EFF0) -- CPU_ReadMem(16 bytes @ 0xE000EFE0)ROMTbl 0 [0]: FFF0F000, CID: B105E00D, PID: 001BB000 SCS -- CPU_ReadMem(16 bytes @ 0xE0001FF0) -- CPU_ReadMem(16 bytes @ 0xE0001FE0)ROMTbl 0 [1]: FFF02000, CID: B105E00D, PID: 001BB002 DWT -- CPU_ReadMem(16 bytes @ 0xE0002FF0) -- CPU_ReadMem(16 bytes @ 0xE0002FE0)
ROMTbl 0 [2]: FFF03000, CID: B105E00D, PID: 000BB003 FPB -- CPU_ReadMem(16 bytes @ 0xE0000FF0) -- CPU_ReadMem(16 bytes @ 0xE0000FE0)ROMTbl 0 [3]: FFF01000, CID: B105E00D, PID: 001BB001 ITM -- CPU_ReadMem(16 bytes @ 0xE00FF010) -- CPU_ReadMem(16 bytes @ 0xE0040FF0) -- CPU_ReadMem(16 bytes @ 0xE0040FE0)ROMTbl 0 [4]: FFF41000, CID: B105900D, PID: 001BB923 TPIU-Lite >0x0D TIF> >0x21 TIF>  returns 0x1BA01477 (0118ms, 0394ms total)
T2CB8 000:482 JLINK_GetDLLVersion()  returns 61007 (0000ms, 0394ms total)
T2CB8 000:482 JLINK_CORE_GetFound()  returns 0x30000FF (0000ms, 0394ms total)
T2CB8 000:482 JLINK_GetDebugInfo(0x100) -- Value=0xE00FF000  returns 0x00 (0000ms, 0394ms total)
T2CB8 000:490 JLINK_ReadMem (0xE00FF000, 0x0020 Bytes, ...) -- CPU is running -- CPU_ReadMem(32 bytes @ 0xE00FF000) - Data: 03 F0 F0 FF 03 20 F0 FF 03 30 F0 FF 03 10 F0 FF ...  returns 0x00 (0002ms, 0396ms total)
T2CB8 000:492 JLINK_ReadMem (0xE000EFF0, 0x0010 Bytes, ...) -- CPU is running -- CPU_ReadMem(16 bytes @ 0xE000EFF0) - Data: 0D 00 00 00 E0 00 00 00 05 00 00 00 B1 00 00 00  returns 0x00 (0001ms, 0397ms total)
T2CB8 000:493 JLINK_ReadMem (0xE000EFD0, 0x0020 Bytes, ...) -- CPU is running -- CPU_ReadMem(32 bytes @ 0xE000EFD0) - Data: 04 00 00 00 00 00 00 00 00 00 00 00 00 00 00 00 ...  returns 0x00 (0001ms, 0398ms total)
T2CB8 000:494 JLINK_ReadMem (0xE0001FF0, 0x0010 Bytes, ...) -- CPU is running -- CPU_ReadMem(16 bytes @ 0xE0001FF0) - Data: 0D 00 00 00 E0 00 00 00 05 00 00 00 B1 00 00 00  returns 0x00 (0001ms, 0399ms total)
T2CB8 000:495 JLINK_ReadMem (0xE0001FD0, 0x0020 Bytes, ...) -- CPU is running -- CPU_ReadMem(32 bytes @ 0xE0001FD0) - Data: 04 00 00 00 00 00 00 00 00 00 00 00 00 00 00 00 ...  returns 0x00 (0001ms, 0400ms total)
T2CB8 000:496 JLINK_ReadMem (0xE0002FF0, 0x0010 Bytes, ...) -- CPU is running -- CPU_ReadMem(16 bytes @ 0xE0002FF0) - Data: 0D 00 00 00 E0 00 00 00 05 00 00 00 B1 00 00 00  returns 0x00 (0001ms, 0401ms total)
T2CB8 000:497 JLINK_ReadMem (0xE0002FD0, 0x0020 Bytes, ...) -- CPU is running -- CPU_ReadMem(32 bytes @ 0xE0002FD0) - Data: 04 00 00 00 00 00 00 00 00 00 00 00 00 00 00 00 ...  returns 0x00 (0001ms, 0402ms total)
T2CB8 000:498 JLINK_ReadMem (0xE0000FF0, 0x0010 Bytes, ...) -- CPU is running -- CPU_ReadMem(16 bytes @ 0xE0000FF0) - Data: 0D 00 00 00 E0 00 00 00 05 00 00 00 B1 00 00 00  returns 0x00 (0001ms, 0403ms total)
T2CB8 000:499 JLINK_ReadMem (0xE0000FD0, 0x0020 Bytes, ...) -- CPU is running -- CPU_ReadMem(32 bytes @ 0xE0000FD0) - Data: 04 00 00 00 00 00 00 00 00 00 00 00 00 00 00 00 ...  returns 0x00 (0001ms, 0404ms total)
T2CB8 000:500 JLINK_ReadMem (0xE0040FF0, 0x0010 Bytes, ...) -- CPU is running -- CPU_ReadMem(16 bytes @ 0xE0040FF0) - Data: 0D 00 00 00 90 00 00 00 05 00 00 00 B1 00 00 00  returns 0x00 (0001ms, 0405ms total)
T2CB8 000:501 JLINK_ReadMem (0xE0040FD0, 0x0020 Bytes, ...) -- CPU is running -- CPU_ReadMem(32 bytes @ 0xE0040FD0) - Data: 04 00 00 00 00 00 00 00 00 00 00 00 00 00 00 00 ...  returns 0x00 (0001ms, 0406ms total)
T2CB8 000:502 JLINK_ReadMemU32(0xE000ED00, 0x0001 Items, ...) -- CPU is running -- CPU_ReadMem(4 bytes @ 0xE000ED00) - Data: 31 C2 1F 41  returns 0x01 (0000ms, 0406ms total)
T2CB8 000:502 JLINK_SetResetType(JLINKARM_RESET_TYPE_NORMAL)  returns JLINKARM_RESET_TYPE_NORMAL (0001ms, 0407ms total)
T2CB8 000:503 JLINK_Reset() -- CPU is running -- CPU_WriteMem(4 bytes @ 0xE000EDF0) -- CPU is running -- CPU_WriteMem(4 bytes @ 0xE000EDFC) >0x35 TIF> -- CPU is running -- CPU_WriteMem(4 bytes @ 0xE000ED0C) -- CPU is running -- CPU_ReadMem(4 bytes @ 0xE000EDF0) -- CPU is running -- CPU_ReadMem(4 bytes @ 0xE000EDF0) -- CPU is running -- CPU_WriteMem(4 bytes @ 0xE000EDF0) -- CPU is running -- CPU_WriteMem(4 bytes @ 0xE000EDFC) -- CPU is running -- CPU_ReadMem(4 bytes @ 0xE000EDF0)
 -- CPU_WriteMem(4 bytes @ 0xE0002000) -- CPU_ReadMem(4 bytes @ 0xE000EDFC) -- CPU_ReadMem(4 bytes @ 0xE0001000) (0021ms, 0428ms total)
T2CB8 000:524 JLINK_Halt()  returns 0x00 (0000ms, 0428ms total)
T2CB8 000:524 JLINK_IsHalted()  returns TRUE (0000ms, 0428ms total)
T2CB8 000:524 JLINK_ReadMemU32(0xE000EDF0, 0x0001 Items, ...) -- CPU_ReadMem(4 bytes @ 0xE000EDF0) - Data: 03 00 03 00  returns 0x01 (0001ms, 0429ms total)
T2CB8 000:525 JLINK_WriteU32(0xE000EDF0, 0xA05F0003) -- CPU_WriteMem(4 bytes @ 0xE000EDF0)  returns 0x00 (0001ms, 0430ms total)
T2CB8 000:526 JLINK_WriteU32(0xE000EDFC, 0x01000000) -- CPU_WriteMem(4 bytes @ 0xE000EDFC)  returns 0x00 (0001ms, 0431ms total)
T2CB8 000:560 JLINK_GetHWStatus(...)  returns 0x00 (0000ms, 0431ms total)
T2CB8 000:586 JLINK_GetNumBPUnits(Type = 0xFFFFFF00)  returns 0x06 (0000ms, 0431ms total)
T2CB8 000:586 JLINK_GetNumBPUnits(Type = 0xF0)  returns 0x2000 (0000ms, 0431ms total)
T2CB8 000:586 JLINK_GetNumWPUnits()  returns 0x04 (0000ms, 0431ms total)
T2CB8 000:613 JLINK_GetSpeed()  returns 0xFA0 (0000ms, 0431ms total)
T2CB8 000:629 JLINK_ReadMemU32(0xE000E004, 0x0001 Items, ...) -- CPU_ReadMem(4 bytes @ 0xE000E004) - Data: 01 00 00 00  returns 0x01 (0001ms, 0432ms total)
T2CB8 000:630 JLINK_ReadMemU32(0xE000E004, 0x0001 Items, ...) -- CPU_ReadMem(4 bytes @ 0xE000E004) - Data: 01 00 00 00  returns 0x01 (0001ms, 0433ms total)
T2CB8 000:631 JLINK_WriteMem(0xE0001000, 0x001C Bytes, ...) - Data: 01 00 00 00 00 00 00 00 00 00 00 00 00 00 00 00 ... -- CPU_WriteMem(28 bytes @ 0xE0001000)  returns 0x1C (0003ms, 0436ms total)
T2CB8 000:634 JLINK_ReadMem (0xE0001000, 0x001C Bytes, ...) -- CPU_ReadMem(28 bytes @ 0xE0001000) - Data: 01 00 00 40 00 00 00 00 00 00 00 00 00 00 00 00 ...  returns 0x00 (0001ms, 0437ms total)
T2CB8 000:635 JLINK_Halt()  returns 0x00 (0000ms, 0437ms total)
T2CB8 000:635 JLINK_IsHalted()  returns TRUE (0000ms, 0437ms total)
T2CB8 000:643 JLINK_WriteMem(0x20000000, 0x0164 Bytes, ...) - Data: 00 BE 0A E0 0D 78 2D 06 68 40 08 24 40 00 00 D3 ... -- CPU_WriteMem(356 bytes @ 0x20000000)  returns 0x164 (0007ms, 0444ms total)
T2CB8 000:650 JLINK_WriteReg(R0, 0x08000000)  returns 0x00 (0000ms, 0444ms total)
T2CB8 000:651 JLINK_WriteReg(R1, 0x007A1200)  returns 0x00 (0000ms, 0445ms total)
T2CB8 000:651 JLINK_WriteReg(R2, 0x00000001)  returns 0x00 (0000ms, 0445ms total)
T2CB8 000:651 JLINK_WriteReg(R3, 0x00000000)  returns 0x00 (0000ms, 0445ms total)
T2CB8 000:651 JLINK_WriteReg(R4, 0x00000000)  returns 0x00 (0000ms, 0445ms total)
T2CB8 000:651 JLINK_WriteReg(R5, 0x00000000)  returns 0x00 (0000ms, 0445ms total)
T2CB8 000:651 JLINK_WriteReg(R6, 0x00000000)  returns 0x00 (0000ms, 0445ms total)
T2CB8 000:651 JLINK_WriteReg(R7, 0x00000000)  returns 0x00 (0000ms, 0445ms total)
T2CB8 000:651 JLINK_WriteReg(R8, 0x00000000)  returns 0x00 (0000ms, 0445ms total)
T2CB8 000:651 JLINK_WriteReg(R9, 0x20000160)  returns 0x00 (0000ms, 0445ms total)
T2CB8 000:651 JLINK_WriteReg(R10, 0x00000000)  returns 0x00 (0000ms, 0445ms total)
T2CB8 000:651 JLINK_WriteReg(R11, 0x00000000)  returns 0x00 (0000ms, 0445ms total)
T2CB8 000:651 JLINK_WriteReg(R12, 0x00000000)  returns 0x00 (0000ms, 0445ms total)
T2CB8 000:651 JLINK_WriteReg(R13 (SP), 0x20001000)  returns 0x00 (0000ms, 0445ms total)
T2CB8 000:651 JLINK_WriteReg(R14, 0x20000001)  returns 0x00 (0000ms, 0445ms total)
T2CB8 000:651 JLINK_WriteReg(R15 (PC), 0x20000038)  returns 0x00 (0000ms, 0445ms total)
T2CB8 000:651 JLINK_WriteReg(XPSR, 0x01000000)  returns 0x00 (0000ms, 0445ms total)
T2CB8 000:651 JLINK_WriteReg(MSP, 0x20001000)  returns 0x00 (0000ms, 0445ms total)
T2CB8 000:651 JLINK_WriteReg(PSP, 0x20001000)  returns 0x00 (0000ms, 0445ms total)
T2CB8 000:651 JLINK_WriteReg(CFBP, 0x00000000)  returns 0x00 (0000ms, 0445ms total)
T2CB8 000:651 JLINK_SetBPEx(Addr = 0x20000000, Type = 0xFFFFFFF2) -- CPU_ReadMem(2 bytes @ 0x20000000)  returns 0x00000001 (0000ms, 0445ms total)
T2CB8 000:653 JLINK_Go() -- CPU_WriteMem(2 bytes @ 0x20000000) -- CPU_ReadMem(4 bytes @ 0xE0001000) -- CPU_WriteMem(4 bytes @ 0xE0002008) -- CPU_WriteMem(4 bytes @ 0xE000200C) -- CPU_WriteMem(4 bytes @ 0xE0002010) -- CPU_WriteMem(4 bytes @ 0xE0002014) -- CPU_WriteMem(4 bytes @ 0xE0002018) -- CPU_WriteMem(4 bytes @ 0xE000201C) -- CPU_WriteMem(4 bytes @ 0xE0001004) (0007ms, 0452ms total)
T2CB8 000:660 JLINK_IsHalted() -- CPU_ReadMem(2 bytes @ 0x20000000)  returns TRUE (0003ms, 0455ms total)
T2CB8 000:663 JLINK_ReadReg(R15 (PC))  returns 0x20000000 (0000ms, 0452ms total)
T2CB8 000:663 JLINK_ClrBPEx(BPHandle = 0x00000001)  returns 0x00 (0000ms, 0452ms total)
T2CB8 000:663 JLINK_ReadReg(R0)  returns 0x00000000 (0000ms, 0452ms total)
T2CB8 000:664 JLINK_WriteReg(R0, 0x08000000)  returns 0x00 (0000ms, 0452ms total)
T2CB8 000:664 JLINK_WriteReg(R1, 0x007A1200)  returns 0x00 (0000ms, 0452ms total)
T2CB8 000:664 JLINK_WriteReg(R2, 0x00000001)  returns 0x00 (0000ms, 0452ms total)
T2CB8 000:665 JLINK_WriteReg(R3, 0x00000000)  returns 0x00 (0000ms, 0453ms total)
T2CB8 000:665 JLINK_WriteReg(R4, 0x00000000)  returns 0x00 (0000ms, 0453ms total)
T2CB8 000:665 JLINK_WriteReg(R5, 0x00000000)  returns 0x00 (0000ms, 0453ms total)
T2CB8 000:665 JLINK_WriteReg(R6, 0x00000000)  returns 0x00 (0000ms, 0453ms total)
T2CB8 000:665 JLINK_WriteReg(R7, 0x00000000)  returns 0x00 (0000ms, 0453ms total)
T2CB8 000:665 JLINK_WriteReg(R8, 0x00000000)  returns 0x00 (0000ms, 0453ms total)
T2CB8 000:665 JLINK_WriteReg(R9, 0x20000160)  returns 0x00 (0000ms, 0453ms total)
T2CB8 000:665 JLINK_WriteReg(R10, 0x00000000)  returns 0x00 (0000ms, 0453ms total)
T2CB8 000:665 JLINK_WriteReg(R11, 0x00000000)  returns 0x00 (0000ms, 0453ms total)
T2CB8 000:665 JLINK_WriteReg(R12, 0x00000000)  returns 0x00 (0000ms, 0453ms total)
T2CB8 000:665 JLINK_WriteReg(R13 (SP), 0x20001000)  returns 0x00 (0000ms, 0453ms total)
T2CB8 000:665 JLINK_WriteReg(R14, 0x20000001)  returns 0x00 (0000ms, 0453ms total)
T2CB8 000:665 JLINK_WriteReg(R15 (PC), 0x2000007C)  returns 0x00 (0000ms, 0453ms total)
T2CB8 000:665 JLINK_WriteReg(XPSR, 0x01000000)  returns 0x00 (0000ms, 0453ms total)
T2CB8 000:665 JLINK_WriteReg(MSP, 0x20001000)  returns 0x00 (0000ms, 0453ms total)
T2CB8 000:665 JLINK_WriteReg(PSP, 0x20001000)  returns 0x00 (0000ms, 0453ms total)
T2CB8 000:665 JLINK_WriteReg(CFBP, 0x00000000)  returns 0x00 (0000ms, 0453ms total)
T2CB8 000:665 JLINK_SetBPEx(Addr = 0x20000000, Type = 0xFFFFFFF2)  returns 0x00000002 (0000ms, 0453ms total)
T2CB8 000:665 JLINK_Go() -- CPU_ReadMem(4 bytes @ 0xE0001000) (0003ms, 0456ms total)
T2CB8 000:668 JLINK_IsHalted()  returns FALSE (0001ms, 0457ms total)
T2CB8 000:913 JLINK_IsHalted() -- CPU_ReadMem(2 bytes @ 0x20000000)  returns TRUE (0004ms, 0460ms total)
T2CB8 000:917 JLINK_ReadReg(R15 (PC))  returns 0x20000000 (0000ms, 0456ms total)
T2CB8 000:917 JLINK_ClrBPEx(BPHandle = 0x00000002)  returns 0x00 (0000ms, 0456ms total)
T2CB8 000:917 JLINK_ReadReg(R0)  returns 0x00000000 (0000ms, 0456ms total)
T2CB8 000:972 JLINK_WriteReg(R0, 0x00000001)  returns 0x00 (0000ms, 0456ms total)
T2CB8 000:972 JLINK_WriteReg(R1, 0x007A1200)  returns 0x00 (0000ms, 0456ms total)
T2CB8 000:972 JLINK_WriteReg(R2, 0x00000001)  returns 0x00 (0000ms, 0456ms total)
T2CB8 000:972 JLINK_WriteReg(R3, 0x00000000)  returns 0x00 (0000ms, 0456ms total)
T2CB8 000:972 JLINK_WriteReg(R4, 0x00000000)  returns 0x00 (0000ms, 0456ms total)
T2CB8 000:972 JLINK_WriteReg(R5, 0x00000000)  returns 0x00 (0000ms, 0456ms total)
T2CB8 000:972 JLINK_WriteReg(R6, 0x00000000)  returns 0x00 (0000ms, 0456ms total)
T2CB8 000:972 JLINK_WriteReg(R7, 0x00000000)  returns 0x00 (0000ms, 0456ms total)
T2CB8 000:972 JLINK_WriteReg(R8, 0x00000000)  returns 0x00 (0001ms, 0457ms total)
T2CB8 000:973 JLINK_WriteReg(R9, 0x20000160)  returns 0x00 (0000ms, 0457ms total)
T2CB8 000:973 JLINK_WriteReg(R10, 0x00000000)  returns 0x00 (0000ms, 0457ms total)
T2CB8 000:973 JLINK_WriteReg(R11, 0x00000000)  returns 0x00 (0000ms, 0457ms total)
T2CB8 000:973 JLINK_WriteReg(R12, 0x00000000)  returns 0x00 (0000ms, 0457ms total)
T2CB8 000:973 JLINK_WriteReg(R13 (SP), 0x20001000)  returns 0x00 (0000ms, 0457ms total)
T2CB8 000:973 JLINK_WriteReg(R14, 0x20000001)  returns 0x00 (0000ms, 0457ms total)
T2CB8 000:973 JLINK_WriteReg(R15 (PC), 0x2000006A)  returns 0x00 (0000ms, 0457ms total)
T2CB8 000:973 JLINK_WriteReg(XPSR, 0x01000000)  returns 0x00 (0000ms, 0457ms total)
T2CB8 000:973 JLINK_WriteReg(MSP, 0x20001000)  returns 0x00 (0000ms, 0457ms total)
T2CB8 000:973 JLINK_WriteReg(PSP, 0x20001000)  returns 0x00 (0000ms, 0457ms total)
T2CB8 000:973 JLINK_WriteReg(CFBP, 0x00000000)  returns 0x00 (0000ms, 0457ms total)
T2CB8 000:973 JLINK_SetBPEx(Addr = 0x20000000, Type = 0xFFFFFFF2)  returns 0x00000003 (0000ms, 0457ms total)
T2CB8 000:973 JLINK_Go() -- CPU_ReadMem(4 bytes @ 0xE0001000) (0003ms, 0460ms total)
T2CB8 000:976 JLINK_IsHalted() -- CPU_ReadMem(2 bytes @ 0x20000000)  returns TRUE (0004ms, 0464ms total)
T2CB8 000:980 JLINK_ReadReg(R15 (PC))  returns 0x20000000 (0000ms, 0460ms total)
T2CB8 000:981 JLINK_ClrBPEx(BPHandle = 0x00000003)  returns 0x00 (0000ms, 0460ms total)
T2CB8 000:981 JLINK_ReadReg(R0)  returns 0x00000000 (0000ms, 0460ms total)
T2CB8 000:996 JLINK_WriteMem(0x20000000, 0x0164 Bytes, ...) - Data: 00 BE 0A E0 0D 78 2D 06 68 40 08 24 40 00 00 D3 ... -- CPU_WriteMem(356 bytes @ 0x20000000)  returns 0x164 (0005ms, 0465ms total)
T2CB8 001:001 JLINK_WriteReg(R0, 0x08000000)  returns 0x00 (0000ms, 0465ms total)
T2CB8 001:002 JLINK_WriteReg(R1, 0x007A1200)  returns 0x00 (0000ms, 0466ms total)
T2CB8 001:002 JLINK_WriteReg(R2, 0x00000002)  returns 0x00 (0000ms, 0466ms total)
T2CB8 001:002 JLINK_WriteReg(R3, 0x00000000)  returns 0x00 (0000ms, 0466ms total)
T2CB8 001:002 JLINK_WriteReg(R4, 0x00000000)  returns 0x00 (0000ms, 0466ms total)
T2CB8 001:002 JLINK_WriteReg(R5, 0x00000000)  returns 0x00 (0000ms, 0466ms total)
T2CB8 001:002 JLINK_WriteReg(R6, 0x00000000)  returns 0x00 (0000ms, 0466ms total)
T2CB8 001:002 JLINK_WriteReg(R7, 0x00000000)  returns 0x00 (0000ms, 0466ms total)
T2CB8 001:002 JLINK_WriteReg(R8, 0x00000000)  returns 0x00 (0000ms, 0466ms total)
T2CB8 001:002 JLINK_WriteReg(R9, 0x20000160)  returns 0x00 (0000ms, 0466ms total)
T2CB8 001:002 JLINK_WriteReg(R10, 0x00000000)  returns 0x00 (0000ms, 0466ms total)
T2CB8 001:002 JLINK_WriteReg(R11, 0x00000000)  returns 0x00 (0000ms, 0466ms total)
T2CB8 001:002 JLINK_WriteReg(R12, 0x00000000)  returns 0x00 (0000ms, 0466ms total)
T2CB8 001:002 JLINK_WriteReg(R13 (SP), 0x20001000)  returns 0x00 (0000ms, 0466ms total)
T2CB8 001:002 JLINK_WriteReg(R14, 0x20000001)  returns 0x00 (0000ms, 0466ms total)
T2CB8 001:002 JLINK_WriteReg(R15 (PC), 0x20000038)  returns 0x00 (0000ms, 0466ms total)
T2CB8 001:002 JLINK_WriteReg(XPSR, 0x01000000)  returns 0x00 (0000ms, 0466ms total)
T2CB8 001:002 JLINK_WriteReg(MSP, 0x20001000)  returns 0x00 (0000ms, 0466ms total)
T2CB8 001:002 JLINK_WriteReg(PSP, 0x20001000)  returns 0x00 (0000ms, 0466ms total)
T2CB8 001:002 JLINK_WriteReg(CFBP, 0x00000000)  returns 0x00 (0000ms, 0466ms total)
T2CB8 001:002 JLINK_SetBPEx(Addr = 0x20000000, Type = 0xFFFFFFF2) -- CPU_ReadMem(2 bytes @ 0x20000000)  returns 0x00000004 (0001ms, 0467ms total)
T2CB8 001:003 JLINK_Go() -- CPU_WriteMem(2 bytes @ 0x20000000) -- CPU_ReadMem(4 bytes @ 0xE0001000) (0004ms, 0471ms total)
T2CB8 001:007 JLINK_IsHalted() -- CPU_ReadMem(2 bytes @ 0x20000000)  returns TRUE (0005ms, 0476ms total)
T2CB8 001:012 JLINK_ReadReg(R15 (PC))  returns 0x20000000 (0000ms, 0471ms total)
T2CB8 001:012 JLINK_ClrBPEx(BPHandle = 0x00000004)  returns 0x00 (0000ms, 0471ms total)
T2CB8 001:012 JLINK_ReadReg(R0)  returns 0x00000000 (0000ms, 0471ms total)
T2CB8 001:013 JLINK_WriteMem(0x20000164, 0x0400 Bytes, ...) - Data: 50 08 00 20 45 38 00 08 E9 16 00 08 EB 16 00 08 ... -- CPU_WriteMem(1024 bytes @ 0x20000164)  returns 0x400 (0012ms, 0483ms total)
T2CB8 001:026 JLINK_WriteReg(R0, 0x08000000)  returns 0x00 (0000ms, 0483ms total)
T2CB8 001:026 JLINK_WriteReg(R1, 0x00000400)  returns 0x00 (0000ms, 0483ms total)
T2CB8 001:026 JLINK_WriteReg(R2, 0x20000164)  returns 0x00 (0000ms, 0483ms total)
T2CB8 001:026 JLINK_WriteReg(R3, 0x00000000)  returns 0x00 (0000ms, 0483ms total)
T2CB8 001:026 JLINK_WriteReg(R4, 0x00000000)  returns 0x00 (0000ms, 0483ms total)
T2CB8 001:026 JLINK_WriteReg(R5, 0x00000000)  returns 0x00 (0000ms, 0483ms total)
T2CB8 001:026 JLINK_WriteReg(R6, 0x00000000)  returns 0x00 (0000ms, 0483ms total)
T2CB8 001:026 JLINK_WriteReg(R7, 0x00000000)  returns 0x00 (0000ms, 0483ms total)
T2CB8 001:026 JLINK_WriteReg(R8, 0x00000000)  returns 0x00 (0000ms, 0483ms total)
T2CB8 001:026 JLINK_WriteReg(R9, 0x20000160)  returns 0x00 (0000ms, 0483ms total)
T2CB8 001:026 JLINK_WriteReg(R10, 0x00000000)  returns 0x00 (0000ms, 0483ms total)
T2CB8 001:026 JLINK_WriteReg(R11, 0x00000000)  returns 0x00 (0000ms, 0483ms total)
T2CB8 001:026 JLINK_WriteReg(R12, 0x00000000)  returns 0x00 (0000ms, 0483ms total)
T2CB8 001:026 JLINK_WriteReg(R13 (SP), 0x20001000)  returns 0x00 (0000ms, 0483ms total)
T2CB8 001:026 JLINK_WriteReg(R14, 0x20000001)  returns 0x00 (0000ms, 0483ms total)
T2CB8 001:026 JLINK_WriteReg(R15 (PC), 0x200000F4)  returns 0x00 (0000ms, 0483ms total)
T2CB8 001:026 JLINK_WriteReg(XPSR, 0x01000000)  returns 0x00 (0000ms, 0483ms total)
T2CB8 001:026 JLINK_WriteReg(MSP, 0x20001000)  returns 0x00 (0000ms, 0483ms total)
T2CB8 001:026 JLINK_WriteReg(PSP, 0x20001000)  returns 0x00 (0001ms, 0484ms total)
T2CB8 001:027 JLINK_WriteReg(CFBP, 0x00000000)  returns 0x00 (0000ms, 0484ms total)
T2CB8 001:027 JLINK_SetBPEx(Addr = 0x20000000, Type = 0xFFFFFFF2)  returns 0x00000005 (0000ms, 0484ms total)
T2CB8 001:027 JLINK_Go() -- CPU_ReadMem(4 bytes @ 0xE0001000) (0003ms, 0487ms total)
T2CB8 001:030 JLINK_IsHalted()  returns FALSE (0000ms, 0487ms total)
T2CB8 001:189 JLINK_IsHalted() -- CPU_ReadMem(2 bytes @ 0x20000000)  returns TRUE (0003ms, 0490ms total)
T2CB8 001:192 JLINK_ReadReg(R15 (PC))  returns 0x20000000 (0000ms, 0487ms total)
T2CB8 001:192 JLINK_ClrBPEx(BPHandle = 0x00000005)  returns 0x00 (0001ms, 0488ms total)
T2CB8 001:193 JLINK_ReadReg(R0)  returns 0x00000000 (0000ms, 0488ms total)
T2CB8 001:193 JLINK_WriteMem(0x20000164, 0x0400 Bytes, ...) - Data: F0 81 2D E9 FF 47 4F F0 00 09 00 24 02 F0 86 FC ... -- CPU_WriteMem(1024 bytes @ 0x20000164)  returns 0x400 (0013ms, 0501ms total)
T2CB8 001:206 JLINK_WriteReg(R0, 0x08000400)  returns 0x00 (0000ms, 0501ms total)
T2CB8 001:206 JLINK_WriteReg(R1, 0x00000400)  returns 0x00 (0000ms, 0501ms total)
T2CB8 001:206 JLINK_WriteReg(R2, 0x20000164)  returns 0x00 (0000ms, 0501ms total)
T2CB8 001:206 JLINK_WriteReg(R3, 0x00000000)  returns 0x00 (0000ms, 0501ms total)
T2CB8 001:206 JLINK_WriteReg(R4, 0x00000000)  returns 0x00 (0000ms, 0501ms total)
T2CB8 001:206 JLINK_WriteReg(R5, 0x00000000)  returns 0x00 (0000ms, 0501ms total)
T2CB8 001:206 JLINK_WriteReg(R6, 0x00000000)  returns 0x00 (0000ms, 0501ms total)
T2CB8 001:206 JLINK_WriteReg(R7, 0x00000000)  returns 0x00 (0000ms, 0501ms total)
T2CB8 001:206 JLINK_WriteReg(R8, 0x00000000)  returns 0x00 (0000ms, 0501ms total)
T2CB8 001:206 JLINK_WriteReg(R9, 0x20000160)  returns 0x00 (0000ms, 0501ms total)
T2CB8 001:206 JLINK_WriteReg(R10, 0x00000000)  returns 0x00 (0000ms, 0501ms total)
T2CB8 001:206 JLINK_WriteReg(R11, 0x00000000)  returns 0x00 (0000ms, 0501ms total)
T2CB8 001:206 JLINK_WriteReg(R12, 0x00000000)  returns 0x00 (0000ms, 0501ms total)
T2CB8 001:206 JLINK_WriteReg(R13 (SP), 0x20001000)  returns 0x00 (0000ms, 0501ms total)
T2CB8 001:206 JLINK_WriteReg(R14, 0x20000001)  returns 0x00 (0000ms, 0501ms total)
T2CB8 001:206 JLINK_WriteReg(R15 (PC), 0x200000F4)  returns 0x00 (0000ms, 0501ms total)
T2CB8 001:206 JLINK_WriteReg(XPSR, 0x01000000)  returns 0x00 (0000ms, 0501ms total)
T2CB8 001:206 JLINK_WriteReg(MSP, 0x20001000)  returns 0x00 (0000ms, 0501ms total)
T2CB8 001:206 JLINK_WriteReg(PSP, 0x20001000)  returns 0x00 (0000ms, 0501ms total)
T2CB8 001:206 JLINK_WriteReg(CFBP, 0x00000000)  returns 0x00 (0000ms, 0501ms total)
T2CB8 001:206 JLINK_SetBPEx(Addr = 0x20000000, Type = 0xFFFFFFF2)  returns 0x00000006 (0000ms, 0501ms total)
T2CB8 001:206 JLINK_Go() -- CPU_ReadMem(4 bytes @ 0xE0001000) (0003ms, 0504ms total)
T2CB8 001:209 JLINK_IsHalted()  returns FALSE (0000ms, 0504ms total)
T2CB8 001:214 JLINK_IsHalted()  returns FALSE (0000ms, 0504ms total)
T2CB8 001:229 JLINK_IsHalted()  returns FALSE (0000ms, 0504ms total)
T2CB8 001:231 JLINK_IsHalted()  returns FALSE (0000ms, 0504ms total)
T2CB8 001:233 JLINK_IsHalted()  returns FALSE (0000ms, 0504ms total)
T2CB8 001:243 JLINK_IsHalted() -- CPU_ReadMem(2 bytes @ 0x20000000)  returns TRUE (0004ms, 0508ms total)
T2CB8 001:247 JLINK_ReadReg(R15 (PC))  returns 0x20000000 (0000ms, 0504ms total)
T2CB8 001:247 JLINK_ClrBPEx(BPHandle = 0x00000006)  returns 0x00 (0000ms, 0504ms total)
T2CB8 001:247 JLINK_ReadReg(R0)  returns 0x00000000 (0000ms, 0504ms total)
T2CB8 001:247 JLINK_WriteMem(0x20000164, 0x0400 Bytes, ...) - Data: 06 F0 E6 F9 A0 A0 00 23 4F F4 FC 62 A0 21 00 90 ... -- CPU_WriteMem(1024 bytes @ 0x20000164)  returns 0x400 (0013ms, 0517ms total)
T2CB8 001:260 JLINK_WriteReg(R0, 0x08000800)  returns 0x00 (0000ms, 0517ms total)
T2CB8 001:260 JLINK_WriteReg(R1, 0x00000400)  returns 0x00 (0000ms, 0517ms total)
T2CB8 001:260 JLINK_WriteReg(R2, 0x20000164)  returns 0x00 (0000ms, 0517ms total)
T2CB8 001:260 JLINK_WriteReg(R3, 0x00000000)  returns 0x00 (0000ms, 0517ms total)
T2CB8 001:260 JLINK_WriteReg(R4, 0x00000000)  returns 0x00 (0000ms, 0517ms total)
T2CB8 001:260 JLINK_WriteReg(R5, 0x00000000)  returns 0x00 (0000ms, 0517ms total)
T2CB8 001:260 JLINK_WriteReg(R6, 0x00000000)  returns 0x00 (0000ms, 0517ms total)
T2CB8 001:260 JLINK_WriteReg(R7, 0x00000000)  returns 0x00 (0000ms, 0517ms total)
T2CB8 001:260 JLINK_WriteReg(R8, 0x00000000)  returns 0x00 (0000ms, 0517ms total)
T2CB8 001:260 JLINK_WriteReg(R9, 0x20000160)  returns 0x00 (0000ms, 0517ms total)
T2CB8 001:260 JLINK_WriteReg(R10, 0x00000000)  returns 0x00 (0000ms, 0517ms total)
T2CB8 001:260 JLINK_WriteReg(R11, 0x00000000)  returns 0x00 (0000ms, 0517ms total)
T2CB8 001:260 JLINK_WriteReg(R12, 0x00000000)  returns 0x00 (0000ms, 0517ms total)
T2CB8 001:260 JLINK_WriteReg(R13 (SP), 0x20001000)  returns 0x00 (0000ms, 0517ms total)
T2CB8 001:260 JLINK_WriteReg(R14, 0x20000001)  returns 0x00 (0000ms, 0517ms total)
T2CB8 001:260 JLINK_WriteReg(R15 (PC), 0x200000F4)  returns 0x00 (0000ms, 0517ms total)
T2CB8 001:260 JLINK_WriteReg(XPSR, 0x01000000)  returns 0x00 (0000ms, 0517ms total)
T2CB8 001:260 JLINK_WriteReg(MSP, 0x20001000)  returns 0x00 (0000ms, 0517ms total)
T2CB8 001:260 JLINK_WriteReg(PSP, 0x20001000)  returns 0x00 (0000ms, 0517ms total)
T2CB8 001:260 JLINK_WriteReg(CFBP, 0x00000000)  returns 0x00 (0000ms, 0517ms total)
T2CB8 001:260 JLINK_SetBPEx(Addr = 0x20000000, Type = 0xFFFFFFF2)  returns 0x00000007 (0000ms, 0517ms total)
T2CB8 001:260 JLINK_Go() -- CPU_ReadMem(4 bytes @ 0xE0001000) (0003ms, 0520ms total)
T2CB8 001:263 JLINK_IsHalted()  returns FALSE (0000ms, 0520ms total)
T2CB8 001:272 JLINK_IsHalted()  returns FALSE (0000ms, 0520ms total)
T2CB8 001:274 JLINK_IsHalted()  returns FALSE (0000ms, 0520ms total)
T2CB8 001:276 JLINK_IsHalted()  returns FALSE (0000ms, 0520ms total)
T2CB8 001:278 JLINK_IsHalted()  returns FALSE (0000ms, 0520ms total)
T2CB8 001:285 JLINK_IsHalted()  returns FALSE (0000ms, 0520ms total)
T2CB8 001:287 JLINK_IsHalted()  returns FALSE (0000ms, 0520ms total)
T2CB8 001:289 JLINK_IsHalted()  returns FALSE (0000ms, 0520ms total)
T2CB8 001:291 JLINK_IsHalted()  returns FALSE (0000ms, 0520ms total)
T2CB8 001:293 JLINK_IsHalted()  returns FALSE (0000ms, 0520ms total)
T2CB8 001:295 JLINK_IsHalted() -- CPU_ReadMem(2 bytes @ 0x20000000)  returns TRUE (0003ms, 0523ms total)
T2CB8 001:298 JLINK_ReadReg(R15 (PC))  returns 0x20000000 (0000ms, 0520ms total)
T2CB8 001:298 JLINK_ClrBPEx(BPHandle = 0x00000007)  returns 0x00 (0000ms, 0520ms total)
T2CB8 001:298 JLINK_ReadReg(R0)  returns 0x00000000 (0000ms, 0520ms total)
T2CB8 001:299 JLINK_WriteMem(0x20000164, 0x0400 Bytes, ...) - Data: 4F F4 FC 62 3C 21 00 90 80 20 05 F0 A4 FB E7 48 ... -- CPU_WriteMem(1024 bytes @ 0x20000164)  returns 0x400 (0013ms, 0533ms total)
T2CB8 001:312 JLINK_WriteReg(R0, 0x08000C00)  returns 0x00 (0000ms, 0533ms total)
T2CB8 001:312 JLINK_WriteReg(R1, 0x00000400)  returns 0x00 (0000ms, 0533ms total)
T2CB8 001:312 JLINK_WriteReg(R2, 0x20000164)  returns 0x00 (0000ms, 0533ms total)
T2CB8 001:312 JLINK_WriteReg(R3, 0x00000000)  returns 0x00 (0000ms, 0533ms total)
T2CB8 001:312 JLINK_WriteReg(R4, 0x00000000)  returns 0x00 (0000ms, 0533ms total)
T2CB8 001:312 JLINK_WriteReg(R5, 0x00000000)  returns 0x00 (0000ms, 0533ms total)
T2CB8 001:312 JLINK_WriteReg(R6, 0x00000000)  returns 0x00 (0000ms, 0533ms total)
T2CB8 001:312 JLINK_WriteReg(R7, 0x00000000)  returns 0x00 (0000ms, 0533ms total)
T2CB8 001:312 JLINK_WriteReg(R8, 0x00000000)  returns 0x00 (0000ms, 0533ms total)
T2CB8 001:312 JLINK_WriteReg(R9, 0x20000160)  returns 0x00 (0000ms, 0533ms total)
T2CB8 001:312 JLINK_WriteReg(R10, 0x00000000)  returns 0x00 (0000ms, 0533ms total)
T2CB8 001:312 JLINK_WriteReg(R11, 0x00000000)  returns 0x00 (0000ms, 0533ms total)
T2CB8 001:312 JLINK_WriteReg(R12, 0x00000000)  returns 0x00 (0000ms, 0533ms total)
T2CB8 001:312 JLINK_WriteReg(R13 (SP), 0x20001000)  returns 0x00 (0000ms, 0533ms total)
T2CB8 001:312 JLINK_WriteReg(R14, 0x20000001)  returns 0x00 (0000ms, 0533ms total)
T2CB8 001:312 JLINK_WriteReg(R15 (PC), 0x200000F4)  returns 0x00 (0000ms, 0533ms total)
T2CB8 001:312 JLINK_WriteReg(XPSR, 0x01000000)  returns 0x00 (0000ms, 0533ms total)
T2CB8 001:312 JLINK_WriteReg(MSP, 0x20001000)  returns 0x00 (0000ms, 0533ms total)
T2CB8 001:312 JLINK_WriteReg(PSP, 0x20001000)  returns 0x00 (0000ms, 0533ms total)
T2CB8 001:312 JLINK_WriteReg(CFBP, 0x00000000)  returns 0x00 (0000ms, 0533ms total)
T2CB8 001:312 JLINK_SetBPEx(Addr = 0x20000000, Type = 0xFFFFFFF2)  returns 0x00000008 (0000ms, 0533ms total)
T2CB8 001:312 JLINK_Go() -- CPU_ReadMem(4 bytes @ 0xE0001000) (0003ms, 0536ms total)
T2CB8 001:315 JLINK_IsHalted()  returns FALSE (0000ms, 0536ms total)
T2CB8 001:322 JLINK_IsHalted()  returns FALSE (0000ms, 0536ms total)
T2CB8 001:324 JLINK_IsHalted()  returns FALSE (0000ms, 0536ms total)
T2CB8 001:341 JLINK_IsHalted()  returns FALSE (0000ms, 0536ms total)
T2CB8 001:343 JLINK_IsHalted()  returns FALSE (0000ms, 0536ms total)
T2CB8 001:353 JLINK_IsHalted() -- CPU_ReadMem(2 bytes @ 0x20000000)  returns TRUE (0004ms, 0540ms total)
T2CB8 001:357 JLINK_ReadReg(R15 (PC))  returns 0x20000000 (0000ms, 0536ms total)
T2CB8 001:357 JLINK_ClrBPEx(BPHandle = 0x00000008)  returns 0x00 (0000ms, 0536ms total)
T2CB8 001:357 JLINK_ReadReg(R0)  returns 0x00000000 (0000ms, 0536ms total)
T2CB8 001:358 JLINK_WriteMem(0x20000164, 0x0400 Bytes, ...) - Data: CD F8 C2 E7 C1 AC BD D3 B3 C9 B9 A6 21 00 00 00 ... -- CPU_WriteMem(1024 bytes @ 0x20000164)  returns 0x400 (0013ms, 0549ms total)
T2CB8 001:371 JLINK_WriteReg(R0, 0x08001000)  returns 0x00 (0000ms, 0549ms total)
T2CB8 001:371 JLINK_WriteReg(R1, 0x00000400)  returns 0x00 (0000ms, 0549ms total)
T2CB8 001:371 JLINK_WriteReg(R2, 0x20000164)  returns 0x00 (0000ms, 0549ms total)
T2CB8 001:371 JLINK_WriteReg(R3, 0x00000000)  returns 0x00 (0000ms, 0549ms total)
T2CB8 001:371 JLINK_WriteReg(R4, 0x00000000)  returns 0x00 (0000ms, 0549ms total)
T2CB8 001:371 JLINK_WriteReg(R5, 0x00000000)  returns 0x00 (0000ms, 0549ms total)
T2CB8 001:371 JLINK_WriteReg(R6, 0x00000000)  returns 0x00 (0000ms, 0549ms total)
T2CB8 001:371 JLINK_WriteReg(R7, 0x00000000)  returns 0x00 (0000ms, 0549ms total)
T2CB8 001:371 JLINK_WriteReg(R8, 0x00000000)  returns 0x00 (0000ms, 0549ms total)
T2CB8 001:371 JLINK_WriteReg(R9, 0x20000160)  returns 0x00 (0000ms, 0549ms total)
T2CB8 001:371 JLINK_WriteReg(R10, 0x00000000)  returns 0x00 (0000ms, 0549ms total)
T2CB8 001:371 JLINK_WriteReg(R11, 0x00000000)  returns 0x00 (0000ms, 0549ms total)
T2CB8 001:371 JLINK_WriteReg(R12, 0x00000000)  returns 0x00 (0000ms, 0549ms total)
T2CB8 001:371 JLINK_WriteReg(R13 (SP), 0x20001000)  returns 0x00 (0000ms, 0549ms total)
T2CB8 001:371 JLINK_WriteReg(R14, 0x20000001)  returns 0x00 (0000ms, 0549ms total)
T2CB8 001:371 JLINK_WriteReg(R15 (PC), 0x200000F4)  returns 0x00 (0000ms, 0549ms total)
T2CB8 001:371 JLINK_WriteReg(XPSR, 0x01000000)  returns 0x00 (0000ms, 0549ms total)
T2CB8 001:371 JLINK_WriteReg(MSP, 0x20001000)  returns 0x00 (0000ms, 0549ms total)
T2CB8 001:371 JLINK_WriteReg(PSP, 0x20001000)  returns 0x00 (0000ms, 0549ms total)
T2CB8 001:371 JLINK_WriteReg(CFBP, 0x00000000)  returns 0x00 (0000ms, 0549ms total)
T2CB8 001:371 JLINK_SetBPEx(Addr = 0x20000000, Type = 0xFFFFFFF2)  returns 0x00000009 (0000ms, 0549ms total)
T2CB8 001:371 JLINK_Go() -- CPU_ReadMem(4 bytes @ 0xE0001000) (0003ms, 0552ms total)
T2CB8 001:374 JLINK_IsHalted()  returns FALSE (0000ms, 0552ms total)
T2CB8 001:382 JLINK_IsHalted()  returns FALSE (0000ms, 0552ms total)
T2CB8 001:384 JLINK_IsHalted()  returns FALSE (0000ms, 0552ms total)
T2CB8 001:386 JLINK_IsHalted()  returns FALSE (0000ms, 0552ms total)
T2CB8 001:388 JLINK_IsHalted()  returns FALSE (0000ms, 0552ms total)
T2CB8 001:390 JLINK_IsHalted()  returns FALSE (0000ms, 0552ms total)
T2CB8 001:397 JLINK_IsHalted()  returns FALSE (0000ms, 0552ms total)
T2CB8 001:399 JLINK_IsHalted()  returns FALSE (0000ms, 0552ms total)
T2CB8 001:401 JLINK_IsHalted()  returns FALSE (0000ms, 0552ms total)
T2CB8 001:407 JLINK_IsHalted() -- CPU_ReadMem(2 bytes @ 0x20000000)  returns TRUE (0004ms, 0556ms total)
T2CB8 001:411 JLINK_ReadReg(R15 (PC))  returns 0x20000000 (0000ms, 0552ms total)
T2CB8 001:411 JLINK_ClrBPEx(BPHandle = 0x00000009)  returns 0x00 (0000ms, 0552ms total)
T2CB8 001:411 JLINK_ReadReg(R0)  returns 0x00000000 (0000ms, 0552ms total)
T2CB8 001:411 JLINK_WriteMem(0x20000164, 0x0400 Bytes, ...) - Data: 2A 7A 29 79 2D 88 A8 B2 01 F0 E3 FF 32 48 FF F7 ... -- CPU_WriteMem(1024 bytes @ 0x20000164)  returns 0x400 (0013ms, 0565ms total)
T2CB8 001:424 JLINK_WriteReg(R0, 0x08001400)  returns 0x00 (0000ms, 0565ms total)
T2CB8 001:425 JLINK_WriteReg(R1, 0x00000400)  returns 0x00 (0000ms, 0565ms total)
T2CB8 001:425 JLINK_WriteReg(R2, 0x20000164)  returns 0x00 (0000ms, 0565ms total)
T2CB8 001:425 JLINK_WriteReg(R3, 0x00000000)  returns 0x00 (0000ms, 0565ms total)
T2CB8 001:425 JLINK_WriteReg(R4, 0x00000000)  returns 0x00 (0000ms, 0565ms total)
T2CB8 001:425 JLINK_WriteReg(R5, 0x00000000)  returns 0x00 (0000ms, 0565ms total)
T2CB8 001:425 JLINK_WriteReg(R6, 0x00000000)  returns 0x00 (0000ms, 0565ms total)
T2CB8 001:425 JLINK_WriteReg(R7, 0x00000000)  returns 0x00 (0000ms, 0565ms total)
T2CB8 001:425 JLINK_WriteReg(R8, 0x00000000)  returns 0x00 (0000ms, 0565ms total)
T2CB8 001:425 JLINK_WriteReg(R9, 0x20000160)  returns 0x00 (0000ms, 0565ms total)
T2CB8 001:425 JLINK_WriteReg(R10, 0x00000000)  returns 0x00 (0000ms, 0565ms total)
T2CB8 001:425 JLINK_WriteReg(R11, 0x00000000)  returns 0x00 (0000ms, 0565ms total)
T2CB8 001:425 JLINK_WriteReg(R12, 0x00000000)  returns 0x00 (0000ms, 0565ms total)
T2CB8 001:425 JLINK_WriteReg(R13 (SP), 0x20001000)  returns 0x00 (0000ms, 0565ms total)
T2CB8 001:425 JLINK_WriteReg(R14, 0x20000001)  returns 0x00 (0000ms, 0565ms total)
T2CB8 001:425 JLINK_WriteReg(R15 (PC), 0x200000F4)  returns 0x00 (0000ms, 0565ms total)
T2CB8 001:425 JLINK_WriteReg(XPSR, 0x01000000)  returns 0x00 (0000ms, 0565ms total)
T2CB8 001:425 JLINK_WriteReg(MSP, 0x20001000)  returns 0x00 (0000ms, 0565ms total)
T2CB8 001:425 JLINK_WriteReg(PSP, 0x20001000)  returns 0x00 (0000ms, 0565ms total)
T2CB8 001:425 JLINK_WriteReg(CFBP, 0x00000000)  returns 0x00 (0000ms, 0565ms total)
T2CB8 001:425 JLINK_SetBPEx(Addr = 0x20000000, Type = 0xFFFFFFF2)  returns 0x0000000A (0000ms, 0565ms total)
T2CB8 001:425 JLINK_Go() -- CPU_ReadMem(4 bytes @ 0xE0001000) (0003ms, 0568ms total)
T2CB8 001:429 JLINK_IsHalted()  returns FALSE (0000ms, 0569ms total)
T2CB8 001:439 JLINK_IsHalted()  returns FALSE (0000ms, 0569ms total)
T2CB8 001:523 JLINK_IsHalted() -- CPU_ReadMem(2 bytes @ 0x20000000)  returns TRUE (0004ms, 0573ms total)
T2CB8 001:527 JLINK_ReadReg(R15 (PC))  returns 0x20000000 (0000ms, 0569ms total)
T2CB8 001:527 JLINK_ClrBPEx(BPHandle = 0x0000000A)  returns 0x00 (0000ms, 0569ms total)
T2CB8 001:527 JLINK_ReadReg(R0)  returns 0x00000000 (0000ms, 0569ms total)
T2CB8 001:528 JLINK_WriteMem(0x20000164, 0x0400 Bytes, ...) - Data: 32 49 08 40 2E 49 08 60 08 46 00 68 20 F4 80 20 ... -- CPU_WriteMem(1024 bytes @ 0x20000164)  returns 0x400 (0013ms, 0582ms total)
T2CB8 001:541 JLINK_WriteReg(R0, 0x08001800)  returns 0x00 (0000ms, 0582ms total)
T2CB8 001:541 JLINK_WriteReg(R1, 0x00000400)  returns 0x00 (0000ms, 0582ms total)
T2CB8 001:541 JLINK_WriteReg(R2, 0x20000164)  returns 0x00 (0000ms, 0582ms total)
T2CB8 001:541 JLINK_WriteReg(R3, 0x00000000)  returns 0x00 (0000ms, 0582ms total)
T2CB8 001:541 JLINK_WriteReg(R4, 0x00000000)  returns 0x00 (0000ms, 0582ms total)
T2CB8 001:541 JLINK_WriteReg(R5, 0x00000000)  returns 0x00 (0000ms, 0582ms total)
T2CB8 001:541 JLINK_WriteReg(R6, 0x00000000)  returns 0x00 (0000ms, 0582ms total)
T2CB8 001:541 JLINK_WriteReg(R7, 0x00000000)  returns 0x00 (0000ms, 0582ms total)
T2CB8 001:541 JLINK_WriteReg(R8, 0x00000000)  returns 0x00 (0000ms, 0582ms total)
T2CB8 001:541 JLINK_WriteReg(R9, 0x20000160)  returns 0x00 (0000ms, 0582ms total)
T2CB8 001:541 JLINK_WriteReg(R10, 0x00000000)  returns 0x00 (0000ms, 0582ms total)
T2CB8 001:541 JLINK_WriteReg(R11, 0x00000000)  returns 0x00 (0000ms, 0582ms total)
T2CB8 001:541 JLINK_WriteReg(R12, 0x00000000)  returns 0x00 (0000ms, 0582ms total)
T2CB8 001:541 JLINK_WriteReg(R13 (SP), 0x20001000)  returns 0x00 (0000ms, 0582ms total)
T2CB8 001:541 JLINK_WriteReg(R14, 0x20000001)  returns 0x00 (0000ms, 0582ms total)
T2CB8 001:541 JLINK_WriteReg(R15 (PC), 0x200000F4)  returns 0x00 (0000ms, 0582ms total)
T2CB8 001:541 JLINK_WriteReg(XPSR, 0x01000000)  returns 0x00 (0000ms, 0582ms total)
T2CB8 001:541 JLINK_WriteReg(MSP, 0x20001000)  returns 0x00 (0000ms, 0582ms total)
T2CB8 001:541 JLINK_WriteReg(PSP, 0x20001000)  returns 0x00 (0000ms, 0582ms total)
T2CB8 001:541 JLINK_WriteReg(CFBP, 0x00000000)  returns 0x00 (0000ms, 0582ms total)
T2CB8 001:541 JLINK_SetBPEx(Addr = 0x20000000, Type = 0xFFFFFFF2)  returns 0x0000000B (0000ms, 0582ms total)
T2CB8 001:541 JLINK_Go() -- CPU_ReadMem(4 bytes @ 0xE0001000) (0003ms, 0585ms total)
T2CB8 001:544 JLINK_IsHalted()  returns FALSE (0001ms, 0586ms total)
T2CB8 001:634 JLINK_IsHalted() -- CPU_ReadMem(2 bytes @ 0x20000000)  returns TRUE (0004ms, 0589ms total)
T2CB8 001:638 JLINK_ReadReg(R15 (PC))  returns 0x20000000 (0000ms, 0585ms total)
T2CB8 001:638 JLINK_ClrBPEx(BPHandle = 0x0000000B)  returns 0x00 (0000ms, 0585ms total)
T2CB8 001:638 JLINK_ReadReg(R0)  returns 0x00000000 (0000ms, 0585ms total)
T2CB8 001:640 JLINK_WriteMem(0x20000164, 0x0400 Bytes, ...) - Data: 13 D1 41 02 1E 48 01 F0 30 FF 01 28 0D D1 01 02 ... -- CPU_WriteMem(1024 bytes @ 0x20000164)  returns 0x400 (0013ms, 0598ms total)
T2CB8 001:653 JLINK_WriteReg(R0, 0x08001C00)  returns 0x00 (0000ms, 0598ms total)
T2CB8 001:653 JLINK_WriteReg(R1, 0x00000400)  returns 0x00 (0000ms, 0598ms total)
T2CB8 001:653 JLINK_WriteReg(R2, 0x20000164)  returns 0x00 (0000ms, 0598ms total)
T2CB8 001:653 JLINK_WriteReg(R3, 0x00000000)  returns 0x00 (0000ms, 0598ms total)
T2CB8 001:653 JLINK_WriteReg(R4, 0x00000000)  returns 0x00 (0000ms, 0598ms total)
T2CB8 001:653 JLINK_WriteReg(R5, 0x00000000)  returns 0x00 (0000ms, 0598ms total)
T2CB8 001:653 JLINK_WriteReg(R6, 0x00000000)  returns 0x00 (0000ms, 0598ms total)
T2CB8 001:653 JLINK_WriteReg(R7, 0x00000000)  returns 0x00 (0000ms, 0598ms total)
T2CB8 001:653 JLINK_WriteReg(R8, 0x00000000)  returns 0x00 (0000ms, 0598ms total)
T2CB8 001:653 JLINK_WriteReg(R9, 0x20000160)  returns 0x00 (0000ms, 0598ms total)
T2CB8 001:653 JLINK_WriteReg(R10, 0x00000000)  returns 0x00 (0000ms, 0598ms total)
T2CB8 001:653 JLINK_WriteReg(R11, 0x00000000)  returns 0x00 (0000ms, 0598ms total)
T2CB8 001:653 JLINK_WriteReg(R12, 0x00000000)  returns 0x00 (0000ms, 0598ms total)
T2CB8 001:653 JLINK_WriteReg(R13 (SP), 0x20001000)  returns 0x00 (0000ms, 0598ms total)
T2CB8 001:653 JLINK_WriteReg(R14, 0x20000001)  returns 0x00 (0000ms, 0598ms total)
T2CB8 001:653 JLINK_WriteReg(R15 (PC), 0x200000F4)  returns 0x00 (0001ms, 0599ms total)
T2CB8 001:654 JLINK_WriteReg(XPSR, 0x01000000)  returns 0x00 (0000ms, 0599ms total)
T2CB8 001:654 JLINK_WriteReg(MSP, 0x20001000)  returns 0x00 (0000ms, 0599ms total)
T2CB8 001:654 JLINK_WriteReg(PSP, 0x20001000)  returns 0x00 (0000ms, 0599ms total)
T2CB8 001:654 JLINK_WriteReg(CFBP, 0x00000000)  returns 0x00 (0000ms, 0599ms total)
T2CB8 001:654 JLINK_SetBPEx(Addr = 0x20000000, Type = 0xFFFFFFF2)  returns 0x0000000C (0000ms, 0599ms total)
T2CB8 001:654 JLINK_Go() -- CPU_ReadMem(4 bytes @ 0xE0001000) (0003ms, 0602ms total)
T2CB8 001:657 JLINK_IsHalted()  returns FALSE (0000ms, 0602ms total)
T2CB8 001:713 JLINK_IsHalted() -- CPU_ReadMem(2 bytes @ 0x20000000)  returns TRUE (0004ms, 0606ms total)
T2CB8 001:717 JLINK_ReadReg(R15 (PC))  returns 0x20000000 (0000ms, 0602ms total)
T2CB8 001:717 JLINK_ClrBPEx(BPHandle = 0x0000000C)  returns 0x00 (0000ms, 0602ms total)
T2CB8 001:717 JLINK_ReadReg(R0)  returns 0x00000000 (0000ms, 0602ms total)
T2CB8 001:718 JLINK_WriteMem(0x20000164, 0x0400 Bytes, ...) - Data: 21 FF B8 F1 00 0F 03 D0 B8 F1 01 0F 0C D1 05 E0 ... -- CPU_WriteMem(1024 bytes @ 0x20000164)  returns 0x400 (0013ms, 0615ms total)
T2CB8 001:731 JLINK_WriteReg(R0, 0x08002000)  returns 0x00 (0000ms, 0615ms total)
T2CB8 001:731 JLINK_WriteReg(R1, 0x00000400)  returns 0x00 (0000ms, 0615ms total)
T2CB8 001:731 JLINK_WriteReg(R2, 0x20000164)  returns 0x00 (0000ms, 0615ms total)
T2CB8 001:731 JLINK_WriteReg(R3, 0x00000000)  returns 0x00 (0000ms, 0615ms total)
T2CB8 001:731 JLINK_WriteReg(R4, 0x00000000)  returns 0x00 (0000ms, 0615ms total)
T2CB8 001:731 JLINK_WriteReg(R5, 0x00000000)  returns 0x00 (0000ms, 0615ms total)
T2CB8 001:731 JLINK_WriteReg(R6, 0x00000000)  returns 0x00 (0000ms, 0615ms total)
T2CB8 001:731 JLINK_WriteReg(R7, 0x00000000)  returns 0x00 (0000ms, 0615ms total)
T2CB8 001:731 JLINK_WriteReg(R8, 0x00000000)  returns 0x00 (0000ms, 0615ms total)
T2CB8 001:731 JLINK_WriteReg(R9, 0x20000160)  returns 0x00 (0000ms, 0615ms total)
T2CB8 001:731 JLINK_WriteReg(R10, 0x00000000)  returns 0x00 (0000ms, 0615ms total)
T2CB8 001:731 JLINK_WriteReg(R11, 0x00000000)  returns 0x00 (0000ms, 0615ms total)
T2CB8 001:731 JLINK_WriteReg(R12, 0x00000000)  returns 0x00 (0000ms, 0615ms total)
T2CB8 001:731 JLINK_WriteReg(R13 (SP), 0x20001000)  returns 0x00 (0000ms, 0615ms total)
T2CB8 001:731 JLINK_WriteReg(R14, 0x20000001)  returns 0x00 (0000ms, 0615ms total)
T2CB8 001:731 JLINK_WriteReg(R15 (PC), 0x200000F4)  returns 0x00 (0000ms, 0615ms total)
T2CB8 001:731 JLINK_WriteReg(XPSR, 0x01000000)  returns 0x00 (0000ms, 0615ms total)
T2CB8 001:731 JLINK_WriteReg(MSP, 0x20001000)  returns 0x00 (0000ms, 0615ms total)
T2CB8 001:731 JLINK_WriteReg(PSP, 0x20001000)  returns 0x00 (0000ms, 0615ms total)
T2CB8 001:731 JLINK_WriteReg(CFBP, 0x00000000)  returns 0x00 (0000ms, 0615ms total)
T2CB8 001:731 JLINK_SetBPEx(Addr = 0x20000000, Type = 0xFFFFFFF2)  returns 0x0000000D (0000ms, 0615ms total)
T2CB8 001:731 JLINK_Go() -- CPU_ReadMem(4 bytes @ 0xE0001000) (0003ms, 0618ms total)
T2CB8 001:734 JLINK_IsHalted()  returns FALSE (0000ms, 0618ms total)
T2CB8 001:744 JLINK_IsHalted()  returns FALSE (0000ms, 0618ms total)
T2CB8 001:746 JLINK_IsHalted()  returns FALSE (0000ms, 0618ms total)
T2CB8 001:748 JLINK_IsHalted()  returns FALSE (0000ms, 0618ms total)
T2CB8 001:750 JLINK_IsHalted()  returns FALSE (0000ms, 0618ms total)
T2CB8 001:752 JLINK_IsHalted()  returns FALSE (0000ms, 0618ms total)
T2CB8 001:762 JLINK_IsHalted()  returns FALSE (0000ms, 0618ms total)
T2CB8 001:764 JLINK_IsHalted()  returns FALSE (0000ms, 0618ms total)
T2CB8 001:825 JLINK_IsHalted() -- CPU_ReadMem(2 bytes @ 0x20000000)  returns TRUE (0004ms, 0622ms total)
T2CB8 001:829 JLINK_ReadReg(R15 (PC))  returns 0x20000000 (0000ms, 0618ms total)
T2CB8 001:829 JLINK_ClrBPEx(BPHandle = 0x0000000D)  returns 0x00 (0000ms, 0618ms total)
T2CB8 001:829 JLINK_ReadReg(R0)  returns 0x00000000 (0000ms, 0618ms total)
T2CB8 001:830 JLINK_WriteMem(0x20000164, 0x0400 Bytes, ...) - Data: 08 48 01 F0 9F FA 02 21 07 48 01 F0 48 FB FF F7 ... -- CPU_WriteMem(1024 bytes @ 0x20000164)  returns 0x400 (0012ms, 0630ms total)
T2CB8 001:843 JLINK_WriteReg(R0, 0x08002400)  returns 0x00 (0000ms, 0630ms total)
T2CB8 001:843 JLINK_WriteReg(R1, 0x00000400)  returns 0x00 (0000ms, 0630ms total)
T2CB8 001:843 JLINK_WriteReg(R2, 0x20000164)  returns 0x00 (0000ms, 0630ms total)
T2CB8 001:843 JLINK_WriteReg(R3, 0x00000000)  returns 0x00 (0000ms, 0630ms total)
T2CB8 001:843 JLINK_WriteReg(R4, 0x00000000)  returns 0x00 (0000ms, 0630ms total)
T2CB8 001:843 JLINK_WriteReg(R5, 0x00000000)  returns 0x00 (0000ms, 0630ms total)
T2CB8 001:843 JLINK_WriteReg(R6, 0x00000000)  returns 0x00 (0000ms, 0630ms total)
T2CB8 001:843 JLINK_WriteReg(R7, 0x00000000)  returns 0x00 (0000ms, 0630ms total)
T2CB8 001:843 JLINK_WriteReg(R8, 0x00000000)  returns 0x00 (0000ms, 0630ms total)
T2CB8 001:843 JLINK_WriteReg(R9, 0x20000160)  returns 0x00 (0000ms, 0630ms total)
T2CB8 001:843 JLINK_WriteReg(R10, 0x00000000)  returns 0x00 (0000ms, 0630ms total)
T2CB8 001:843 JLINK_WriteReg(R11, 0x00000000)  returns 0x00 (0000ms, 0630ms total)
T2CB8 001:843 JLINK_WriteReg(R12, 0x00000000)  returns 0x00 (0000ms, 0630ms total)
T2CB8 001:843 JLINK_WriteReg(R13 (SP), 0x20001000)  returns 0x00 (0000ms, 0630ms total)
T2CB8 001:843 JLINK_WriteReg(R14, 0x20000001)  returns 0x00 (0000ms, 0630ms total)
T2CB8 001:843 JLINK_WriteReg(R15 (PC), 0x200000F4)  returns 0x00 (0000ms, 0630ms total)
T2CB8 001:843 JLINK_WriteReg(XPSR, 0x01000000)  returns 0x00 (0000ms, 0630ms total)
T2CB8 001:843 JLINK_WriteReg(MSP, 0x20001000)  returns 0x00 (0000ms, 0630ms total)
T2CB8 001:843 JLINK_WriteReg(PSP, 0x20001000)  returns 0x00 (0001ms, 0631ms total)
T2CB8 001:844 JLINK_WriteReg(CFBP, 0x00000000)  returns 0x00 (0000ms, 0631ms total)
T2CB8 001:844 JLINK_SetBPEx(Addr = 0x20000000, Type = 0xFFFFFFF2)  returns 0x0000000E (0000ms, 0631ms total)
T2CB8 001:844 JLINK_Go() -- CPU_ReadMem(4 bytes @ 0xE0001000) (0002ms, 0633ms total)
T2CB8 001:846 JLINK_IsHalted()  returns FALSE (0001ms, 0634ms total)
T2CB8 001:978 JLINK_IsHalted() -- CPU_ReadMem(2 bytes @ 0x20000000)  returns TRUE (0004ms, 0637ms total)
T2CB8 001:982 JLINK_ReadReg(R15 (PC))  returns 0x20000000 (0000ms, 0633ms total)
T2CB8 001:982 JLINK_ClrBPEx(BPHandle = 0x0000000E)  returns 0x00 (0000ms, 0633ms total)
T2CB8 001:982 JLINK_ReadReg(R0)  returns 0x00000000 (0000ms, 0633ms total)
T2CB8 001:984 JLINK_WriteMem(0x20000164, 0x0400 Bytes, ...) - Data: 09 4B 06 F0 17 FA 05 46 06 F0 26 F9 20 60 BD E8 ... -- CPU_WriteMem(1024 bytes @ 0x20000164)  returns 0x400 (0013ms, 0646ms total)
T2CB8 001:997 JLINK_WriteReg(R0, 0x08002800)  returns 0x00 (0000ms, 0646ms total)
T2CB8 001:997 JLINK_WriteReg(R1, 0x00000400)  returns 0x00 (0000ms, 0646ms total)
T2CB8 001:997 JLINK_WriteReg(R2, 0x20000164)  returns 0x00 (0000ms, 0646ms total)
T2CB8 001:998 JLINK_WriteReg(R3, 0x00000000)  returns 0x00 (0000ms, 0647ms total)
T2CB8 001:998 JLINK_WriteReg(R4, 0x00000000)  returns 0x00 (0000ms, 0647ms total)
T2CB8 001:998 JLINK_WriteReg(R5, 0x00000000)  returns 0x00 (0000ms, 0647ms total)
T2CB8 001:998 JLINK_WriteReg(R6, 0x00000000)  returns 0x00 (0000ms, 0647ms total)
T2CB8 001:998 JLINK_WriteReg(R7, 0x00000000)  returns 0x00 (0000ms, 0647ms total)
T2CB8 001:998 JLINK_WriteReg(R8, 0x00000000)  returns 0x00 (0000ms, 0647ms total)
T2CB8 001:998 JLINK_WriteReg(R9, 0x20000160)  returns 0x00 (0000ms, 0647ms total)
T2CB8 001:998 JLINK_WriteReg(R10, 0x00000000)  returns 0x00 (0000ms, 0647ms total)
T2CB8 001:998 JLINK_WriteReg(R11, 0x00000000)  returns 0x00 (0000ms, 0647ms total)
T2CB8 001:998 JLINK_WriteReg(R12, 0x00000000)  returns 0x00 (0000ms, 0647ms total)
T2CB8 001:998 JLINK_WriteReg(R13 (SP), 0x20001000)  returns 0x00 (0000ms, 0647ms total)
T2CB8 001:998 JLINK_WriteReg(R14, 0x20000001)  returns 0x00 (0000ms, 0647ms total)
T2CB8 001:998 JLINK_WriteReg(R15 (PC), 0x200000F4)  returns 0x00 (0000ms, 0647ms total)
T2CB8 001:998 JLINK_WriteReg(XPSR, 0x01000000)  returns 0x00 (0000ms, 0647ms total)
T2CB8 001:998 JLINK_WriteReg(MSP, 0x20001000)  returns 0x00 (0000ms, 0647ms total)
T2CB8 001:998 JLINK_WriteReg(PSP, 0x20001000)  returns 0x00 (0000ms, 0647ms total)
T2CB8 001:998 JLINK_WriteReg(CFBP, 0x00000000)  returns 0x00 (0000ms, 0647ms total)
T2CB8 001:998 JLINK_SetBPEx(Addr = 0x20000000, Type = 0xFFFFFFF2)  returns 0x0000000F (0000ms, 0647ms total)
T2CB8 001:998 JLINK_Go() -- CPU_ReadMem(4 bytes @ 0xE0001000) (0003ms, 0650ms total)
T2CB8 002:001 JLINK_IsHalted()  returns FALSE (0001ms, 0651ms total)
T2CB8 002:078 JLINK_IsHalted() -- CPU_ReadMem(2 bytes @ 0x20000000)  returns TRUE (0004ms, 0654ms total)
T2CB8 002:082 JLINK_ReadReg(R15 (PC))  returns 0x20000000 (0000ms, 0650ms total)
T2CB8 002:082 JLINK_ClrBPEx(BPHandle = 0x0000000F)  returns 0x00 (0000ms, 0650ms total)
T2CB8 002:082 JLINK_ReadReg(R0)  returns 0x00000000 (0000ms, 0650ms total)
T2CB8 002:084 JLINK_WriteMem(0x20000164, 0x0400 Bytes, ...) - Data: 81 20 FF F7 E2 FE 4F F4 80 61 4E 48 00 F0 47 FF ... -- CPU_WriteMem(1024 bytes @ 0x20000164)  returns 0x400 (0013ms, 0663ms total)
T2CB8 002:097 JLINK_WriteReg(R0, 0x08002C00)  returns 0x00 (0000ms, 0663ms total)
T2CB8 002:097 JLINK_WriteReg(R1, 0x00000400)  returns 0x00 (0000ms, 0663ms total)
T2CB8 002:097 JLINK_WriteReg(R2, 0x20000164)  returns 0x00 (0000ms, 0663ms total)
T2CB8 002:097 JLINK_WriteReg(R3, 0x00000000)  returns 0x00 (0000ms, 0663ms total)
T2CB8 002:097 JLINK_WriteReg(R4, 0x00000000)  returns 0x00 (0000ms, 0663ms total)
T2CB8 002:097 JLINK_WriteReg(R5, 0x00000000)  returns 0x00 (0000ms, 0663ms total)
T2CB8 002:097 JLINK_WriteReg(R6, 0x00000000)  returns 0x00 (0000ms, 0663ms total)
T2CB8 002:097 JLINK_WriteReg(R7, 0x00000000)  returns 0x00 (0000ms, 0663ms total)
T2CB8 002:097 JLINK_WriteReg(R8, 0x00000000)  returns 0x00 (0000ms, 0663ms total)
T2CB8 002:097 JLINK_WriteReg(R9, 0x20000160)  returns 0x00 (0000ms, 0663ms total)
T2CB8 002:097 JLINK_WriteReg(R10, 0x00000000)  returns 0x00 (0000ms, 0663ms total)
T2CB8 002:097 JLINK_WriteReg(R11, 0x00000000)  returns 0x00 (0000ms, 0663ms total)
T2CB8 002:097 JLINK_WriteReg(R12, 0x00000000)  returns 0x00 (0000ms, 0663ms total)
T2CB8 002:097 JLINK_WriteReg(R13 (SP), 0x20001000)  returns 0x00 (0000ms, 0663ms total)
